!Output generated by mRS VNA Controller.
!Reflection Reading
# Hz S dB R 50
10000 -7.832605039486839 161.92865932670173
230210 -56.21464952145712 26.709519825730567
450420 -60.09667516035121 40.17816291712814
670630 -60.59603364068011 51.978869987931915
890840 -66.0457553347579 22.36840644434152
1111051 -62.39949290987755 5.656578869295728
1331261 -62.31485916126574 32.960412496488985
1551471 -61.60476132599335 29.22813111949004
1771681 -61.91608478907179 26.740853199936815
1991891 -60.26685816109071 23.824465236636733
2212102 -64.29229377516279 39.733621441677975
2432312 -59.28293421112136 46.55901229253344
2652522 -65.81298142567017 -4.137005986339749
2872732 -63.115924318450084 27.54686276694776
3092942 -67.10710926269844 37.08017278708202
3313153 -61.70558707902663 77.79937865446612
3533363 -61.486666644545515 51.37275106379944
3753573 -61.326682495495994 52.52090550014517
3973783 -63.04167500382861 66.76331228223697
4193993 -69.2066839332245 22.950821790818697
4414204 -62.728160956652445 38.666062788928656
4634414 -64.65069454686079 90.66624480459132
4854624 -70.37929960395059 -19.676090371490293
5074834 -91.70340002863352 83.72030279190456
5295045 -65.49928493700622 54.746569244886466
5515255 -74.39857779605872 32.1701429575875
5735465 -65.66069035916877 46.868628703690725
5955675 -63.627534321002635 -10.84601446594443
6175885 -78.13877375461892 16.527177525902776
6396096 -67.17449971189515 57.03850239013495
6616306 -63.70845561512514 59.49533702771431
6836516 -67.05120995229593 47.912838280760724
7056726 -63.61544218880284 67.08945321170447
7276936 -63.42646702667569 27.635871172027322
7497147 -64.59794384689484 47.230396794868696
7717357 -72.75510331182545 9.741863501248295
7937567 -67.35949414807126 43.71451084174398
8157777 -62.55411038991915 53.13888242040564
8377987 -65.21164914543124 74.57394018310576
8598198 -62.93991579237208 32.84739352818991
8818408 -65.21393573907706 63.87243098811697
9038618 -66.36392166252415 83.48685528465957
9258828 -65.77460558961468 49.714712007508204
9479039 -61.8195902034216 15.992161292897922
9699249 -64.10861736609867 34.21607059198015
9919459 -68.19776049792267 86.25741247610932
10139669 -67.81931880802216 15.173363900319966
10359879 -68.9937737288131 86.60744068496025
10580090 -66.57462524008325 62.36718510894894
10800300 -70.18812320923972 84.30008202678067
11020510 -67.76200507758654 30.92655517883967
11240720 -66.06913607439014 33.514320676820205
11460930 -64.56895905118445 44.981888143859074
11681141 -67.83873500158893 50.796272582864205
11901351 -63.8487176001387 47.92684054767745
12121561 -63.8088211473427 52.94704315237372
12341771 -68.94594227825186 34.33459482548152
12561981 -65.50581797144658 75.97580334718795
12782192 -65.00564867969923 45.636148802525504
13002402 -67.94731594135362 55.525034493686405
13222612 -67.912522530656 24.744800272846344
13442822 -62.88735541996479 41.70834319557269
13663033 -65.71658555015938 77.71037430478022
13883243 -65.9574476055307 64.41787605915451
14103453 -66.1149924249907 38.33012746643663
14323663 -67.81680003785775 52.83753143563027
14543873 -64.67845657840515 83.26500550155762
14764084 -65.6501826115736 77.4535524728941
14984294 -65.58576823801427 48.23548081449707
15204504 -68.54241829952636 11.28550268428129
15424714 -66.89197335109344 29.803641054783093
15644924 -64.26990412277956 44.33387280237925
15865135 -64.37637666870796 0.32286473729336235
16085345 -66.70890113873202 57.619015634004775
16305555 -66.48001994175439 38.765664199707096
16525765 -73.40848926204332 33.09139971045092
16745975 -67.74255495441236 75.61157819493273
16966186 -67.02253766058804 35.662443216205546
17186396 -62.86880890612739 34.08504565910803
17406606 -64.05458213052592 40.863443599717726
17626816 -71.75840398712486 26.141481220975557
17847027 -64.63903657762346 30.65150614206334
18067237 -64.2542399912653 30.06572547930619
18287447 -75.64228201015361 70.68717402947647
18507657 -67.18230830147328 57.62643854160022
18727867 -68.04143598668323 63.081759203867264
18948078 -60.725569676914745 48.76086645735057
19168288 -64.57211686142477 63.92224228285267
19388498 -69.28499574328774 42.53243125764385
19608708 -69.28622459968781 70.74539411412279
19828918 -70.02337446056292 41.5434283985333
20049129 -67.35016326834229 14.470628625202327
20269339 -82.31572375698471 51.395352497661335
20489549 -74.89945479567399 86.35416771368597
20709759 -66.8392341320473 39.3601303562008
20929969 -72.45808497485265 0.2199709753926527
21150180 -72.44059873023717 75.67049534553914
21370390 -71.55209144247058 91.68744338129075
21590600 -61.244490702734204 51.43641222244239
21810810 -64.8817897018734 86.05061902761875
22031021 -66.70095491479715 24.288169734020617
22251231 -63.34375168599118 64.0627017362387
22471441 -69.17565770490705 92.34789702170747
22691651 -68.59199007371217 25.040658275348214
22911861 -81.81335924456863 131.99193316380087
23132072 -65.67359223813705 27.764148491412804
23352282 -67.57241873379205 89.24017502313073
23572492 -69.39092927890756 40.36039680070091
23792702 -68.46539935688297 7.405023778703837
24012912 -75.37541027452588 45.00103864407478
24233123 -68.83709257323994 32.583733043372575
24453333 -66.06926813294697 16.760987070204163
24673543 -67.22138044486363 73.56980650884087
24893753 -66.20256512325491 30.947772357915138
25113963 -65.37702602814839 52.0115542013718
25334174 -62.84377400425225 46.0197025543686
25554384 -69.49629549619958 34.026371943809814
25774594 -65.8231851041828 -22.70619170990912
25994804 -68.58995693154495 56.42716741491441
26215015 -62.710735063399135 71.54291736718815
26435225 -67.58058309470543 49.51467322100884
26655435 -65.75548076018504 45.52101115067315
26875645 -67.28445780175109 85.62202403418715
27095855 -64.28373112398414 67.6151228802175
27316066 -73.9521335410828 -11.689577768093471
27536276 -67.51364460640609 49.7449119207629
27756486 -64.48709871054288 56.68120270034086
27976696 -69.30366381988351 21.85787275598567
28196906 -64.068339881845 91.16343943945083
28417117 -62.7237530649701 66.44642086906148
28637327 -71.89906718314867 47.67409193207299
28857537 -62.32724311784497 17.424669263644358
29077747 -64.66043109467034 58.3160750449029
29297957 -64.05657990636358 41.20339769888054
29518168 -67.28647035928515 72.24466103824325
29738378 -66.3481254684564 90.3642526825163
29958588 -72.75122460105851 14.109937495597142
30178798 -76.15052578738789 43.950191834765995
30399009 -65.16719684154255 55.06916102753697
30619219 -66.65430216518988 62.42372542625999
30839429 -66.4988308450988 67.15415340169396
31059639 -69.352268061623 115.57039272797478
31279849 -64.70961541077442 29.022963127288374
31500060 -72.8480400537365 93.44151621745975
31720270 -68.68736595260364 21.466551811612394
31940480 -65.9427128347054 85.99671225483019
32160690 -64.1702716712439 66.02143887855858
32380900 -66.56946180350259 20.88359977680661
32601111 -66.0795530150447 87.65912570046014
32821321 -63.83576302544021 19.075282079615107
33041531 -66.81090952327624 81.50637806341041
33261741 -66.5192958815388 81.75897819944385
33481951 -61.76386789367722 56.62250763361138
33702162 -71.36816799141772 26.437498571267867
33922372 -69.76573812434157 63.03338236184508
34142582 -62.749074385631054 76.62070168015276
34362792 -71.76280264649102 81.10998017410317
34583003 -68.20291790523686 59.049796960750506
34803213 -65.3820263726002 74.42542828947272
35023423 -75.29241554132605 50.75905831573554
35243633 -66.99938556531583 58.87708141983124
35463843 -63.94912680134808 93.28988977458238
35684054 -71.57777625263333 31.055397521649663
35904264 -66.18066078563777 22.284971279757336
36124474 -62.651525542582505 68.7230543164356
36344684 -68.4215173628924 61.213892717999094
36564894 -64.63039593567007 102.70957528173393
36785105 -69.36095919726249 69.93011780269889
37005315 -70.54042758826658 100.04705882581325
37225525 -69.09989464460944 126.05082847611317
37445735 -65.86989366380047 6.242994025464661
37665945 -69.44669513097217 31.174017896969715
37886156 -66.40704884674832 49.55221450794924
38106366 -64.37000524740212 70.80380335471892
38326576 -63.075043819463204 78.47621842600728
38546786 -71.50699204456545 19.954102491871613
38766996 -66.62497664372027 32.10785527750346
38987207 -63.08633261618415 58.38157301455742
39207417 -62.61621174207522 81.47064118649752
39427627 -63.351910726824926 46.8619696867135
39647837 -68.81435061487517 95.50508390280787
39868048 -62.39730354372653 38.71916813361919
40088258 -84.7047398017155 57.728236024799315
40308468 -76.26521728061536 109.56560884015404
40528678 -70.4412788838151 142.52397233541302
40748888 -59.678190813625974 102.07744591805033
40969099 -67.13152813181682 41.052579503705765
41189309 -62.545432573882785 73.12762058815592
41409519 -63.889904942791034 64.30275384811912
41629729 -68.75103496047109 67.52506851841466
41849939 -70.70117550811881 -8.32538412302441
42070150 -65.20968345767028 100.92860465089072
42290360 -67.86461417978498 70.3189995412812
42510570 -70.05421480822636 57.34964429434297
42730780 -70.59414336762545 44.11393143239672
42950990 -66.91085446025498 39.45418544003781
43171201 -66.20376409801585 -7.142074708751855
43391411 -65.53503505309243 97.71837875804701
43611621 -72.33576802298843 -156.8436671156154
43831831 -66.73165432772105 67.78328448886268
44052042 -65.59531968358746 53.57009494477733
44272252 -65.20566107485233 58.13490019234193
44492462 -69.47948575806915 80.42708869456933
44712672 -64.8659665533444 74.53722422720391
44932882 -74.42200398625562 105.76815136189396
45153093 -71.13406752601375 94.29505140737794
45373303 -69.96400264378966 132.03469684189213
45593513 -71.96015416530605 80.93000990097141
45813723 -70.08805334158477 67.18315961510652
46033933 -65.72949740007245 53.871923975460135
46254144 -63.1160413946988 49.449526218740715
46474354 -62.3325879447279 58.1787690286973
46694564 -63.0363856123424 55.32403796406666
46914774 -75.5198631685343 172.88003196061462
47134984 -61.510867213563294 51.82600076106418
47355195 -61.97177531258756 56.962236739882655
47575405 -66.31141653928805 64.9193004540844
47795615 -73.15327894128073 53.38384836008385
48015825 -68.43837030404963 65.77439050464831
48236036 -64.05537627834308 53.90615038219363
48456246 -64.86863063787227 18.833526376388374
48676456 -68.23996069353717 120.04957544249321
48896666 -80.98861479725747 39.402287035416485
49116876 -67.03487957157262 80.71495662196445
49337087 -64.17915676488333 59.77695682715984
49557297 -63.616411953904056 26.496644611305452
49777507 -72.47500795304964 16.380087406924314
49997717 -63.207062105949106 51.581756113286765
50217927 -68.4748700543261 84.88553735579609
50438138 -72.96504219244878 -151.72495929615454
50658348 -67.3142857588053 52.17332456630733
50878558 -67.0700133972272 109.01951694309562
51098768 -65.07662738272549 72.28252137392805
51318978 -66.94255847490764 122.63579842366836
51539189 -61.44198417968502 41.06557792468034
51759399 -65.59935360372423 80.28930107371083
51979609 -70.60632992429365 44.96098651612295
52199819 -63.66657624193053 -23.78652127677978
52420030 -70.3809729878177 85.45060069619903
52640240 -65.08566304224705 60.834781533444676
52860450 -65.77938315826009 44.055044689463045
53080660 -62.444271263648325 47.73886107906845
53300870 -64.6920135385494 78.44148114424002
53521081 -66.9233119450224 84.71931537886498
53741291 -61.87213532270812 42.72013599470733
53961501 -71.37427752218925 -5.168570665004948
54181711 -65.75248406348707 -16.883484964211195
54401921 -70.67816224333471 162.96853970862722
54622132 -65.65357421569134 89.99440688823297
54842342 -66.32203408393566 105.20400020781415
55062552 -68.21391800955989 28.979779747363533
55282762 -63.048771891349446 15.382557961730912
55502972 -66.51560765811081 84.52930699890764
55723183 -70.61898865126415 53.91611704050649
55943393 -73.59288345960286 161.30620724224116
56163603 -70.09923254938113 44.56018262338631
56383813 -64.20581613513708 16.939363230632583
56604024 -67.39342186320054 16.761052811431544
56824234 -61.33569911652338 76.21882700315123
57044444 -67.29070097700739 22.422411284310016
57264654 -71.2096407610325 45.36269219600097
57484864 -63.11473747012121 59.940765386304456
57705075 -62.50036305473596 47.541409820754936
57925285 -64.04934821836406 74.38907175047872
58145495 -64.8735873268229 21.328597747267388
58365705 -76.03748515040553 32.91985695796169
58585915 -63.1832094702236 27.868929737969918
58806126 -63.422031426749896 75.75712128628751
59026336 -72.16833340256714 29.037121399077094
59246546 -59.9470931473138 97.46847342250182
59466756 -61.251373075654236 48.66283423588393
59686966 -63.12794702710575 -5.431820156544901
59907177 -63.74879623887231 67.5700856088415
60127387 -73.81479247617948 91.33758513009677
60347597 -64.5462388150358 8.09874976957515
60567807 -66.86094527018712 -71.79387736163147
60788018 -67.52862501664052 41.34384756195462
61008228 -80.90021085232758 -49.62853524117501
61228438 -60.56485947554173 32.6752519013255
61448648 -67.93861530975808 62.04828621758468
61668858 -65.12170508909989 35.240555165016865
61889069 -65.73263992490237 -30.041765324713918
62109279 -76.46028818918366 83.32477815793533
62329489 -65.35802623214518 7.1858032208737495
62549699 -64.59690561169963 28.59408910352531
62769909 -60.06724819455223 61.16638892874108
62990120 -61.18343167192684 88.27582157753177
63210330 -62.55959922628272 70.50501675695476
63430540 -67.46036260340766 55.14239652251322
63650750 -63.239005232050786 119.33791986149826
63870960 -68.67570222681695 29.192549714806542
64091171 -70.08213022436642 130.330503183575
64311381 -69.25106173694104 55.45341010517636
64531591 -69.61334999972496 39.52589192266516
64751801 -62.94396311027292 74.48388358913994
64972012 -59.123422024094765 52.54493544636057
65192222 -63.255921028657255 61.34613730975597
65412432 -71.00350291153421 31.454951038780482
65632642 -66.20489674986162 -22.102460247902506
65852852 -67.10876286887652 23.8629477621964
66073063 -69.7910833562298 56.89456033731234
66293273 -79.52520021178475 54.325630680293465
66513483 -65.20859831026205 174.3516966492261
66733693 -65.73115207812162 74.90705673863295
66953903 -67.17419958536152 136.34812787390936
67174114 -57.64253657925729 68.23886979705334
67394324 -67.33205166519011 71.98871570524682
67614534 -68.54011275188395 57.87215145277023
67834744 -63.8649181203943 -1.722983317893564
68054954 -63.797338247289005 29.478968994229557
68275165 -64.46344594205551 26.50997930522996
68495375 -59.81337478311126 1.0204462772792182
68715585 -61.97391141329065 46.528157640129294
68935795 -61.52724780405749 33.913254401721275
69156006 -63.347985192283446 80.72715751728096
69376216 -63.6078883099954 55.59302133514197
69596426 -67.7291481416968 62.55552642729626
69816636 -70.56431863167464 25.595048114354775
70036846 -65.29082981440189 11.417726988777455
70257057 -60.232916657254066 35.096761296616926
70477267 -65.42378342113508 9.026336732836029
70697477 -66.18000945926238 86.78481934434726
70917687 -63.75567617983427 73.10195951422114
71137897 -59.346691297323204 43.81757861297537
71358108 -76.8898768353307 -175.86625586188117
71578318 -65.33945711590965 60.73255408800466
71798528 -67.24249307756138 59.97116598209092
72018738 -64.06700025359191 -141.6618895515804
72238948 -60.52694473227342 61.889798817094466
72459159 -59.77910257116572 79.88271148684649
72679369 -63.52493537556463 108.13304518445533
72899579 -61.76419382535726 49.87946419504863
73119789 -59.89583138116161 18.88273264029493
73340000 -57.42191114497656 70.13898665216072
73560210 -64.98458225978672 165.89339131762154
73780420 -66.56079502208695 141.824562703199
74000630 -67.97914487898655 18.235838907544565
74220840 -59.422067451312664 48.0218787668855
74441051 -65.43281220222052 148.73731615642242
74661261 -59.02764142467213 28.228303594070677
74881471 -69.28904085879125 88.7616189430871
75101681 -67.78393338083292 69.32900760952764
75321891 -62.07399557468213 80.22796444040411
75542102 -67.57645442000108 134.54558650099438
75762312 -64.82958313605232 64.79282300725826
75982522 -62.71935884756989 59.28883985738115
76202732 -66.31491702045744 103.60347555798545
76422942 -77.36269415597094 -91.40674821910032
76643153 -63.59968231903739 45.62772945461917
76863363 -65.71067554713485 70.86153172436656
77083573 -62.07679820161939 61.08196424478691
77303783 -64.99820792849786 30.68869663007862
77523993 -71.86199502987893 72.06425431501664
77744204 -67.89531358355933 47.75086012555165
77964414 -63.89660702618191 139.8254742678143
78184624 -57.41370293237763 51.72120803449957
78404834 -68.71322779475473 53.838540157238086
78625045 -63.00757560069266 38.749140127742066
78845255 -60.94878860666775 84.07781883548145
79065465 -58.7708696031089 62.37177333173426
79285675 -58.69950463912218 72.49834369266497
79505885 -62.98588566963946 30.826845997174363
79726096 -62.4213250885104 38.65071383251203
79946306 -59.352196089935134 58.1621669531616
80166516 -60.881728691678454 87.13639876776787
80386726 -68.03564312433066 72.44589696938432
80606936 -62.710868404915985 43.8256308846597
80827147 -65.19362545829141 47.996441949793656
81047357 -61.489895220872214 96.75811408696173
81267567 -57.70126829607201 51.54542619543816
81487777 -69.49217799901916 82.7842981474287
81707987 -67.24946272785203 14.331060880816798
81928198 -58.03596747078049 40.351314213236265
82148408 -68.40903540910966 13.364833403061906
82368618 -71.7858983340722 144.9903877014686
82588828 -59.31404629355369 19.88591304164948
82809039 -66.28776590688528 -6.82096118443252
83029249 -69.95966408412202 -38.52372146441573
83249459 -68.70843896600599 57.244634414021995
83469669 -61.003568049499094 37.26512107833394
83689879 -63.18561245748406 21.52645246491288
83910090 -77.7610545550492 -8.083712236333062
84130300 -62.18519928018836 41.532052161201825
84350510 -65.58456279696068 71.93499719593488
84570720 -67.43154116995386 64.73591776553805
84790930 -65.7941553343172 70.4870139555902
85011141 -71.68214375688524 4.653955761913562
85231351 -58.72826159028172 101.80613546096637
85451561 -61.307565776090215 90.30989822461764
85671771 -69.13684096908449 69.19203960452347
85891981 -59.66615867749495 77.80611967719815
86112192 -58.228208284731615 47.07135574720701
86332402 -64.15521097279805 39.59669717440624
86552612 -58.72343914804805 114.89251624824794
86772822 -63.039456600676175 116.60267521541644
86993033 -64.82090371860913 120.86620370805818
87213243 -63.72639645673897 -10.599197919786105
87433453 -58.103248520078964 59.0105703465422
87653663 -66.06731521296639 56.611134070242684
87873873 -69.78151278828437 9.285171560291396
88094084 -66.86079402718323 93.44195949597153
88314294 -72.7607127998451 -178.85516283779356
88534504 -65.29524160332578 58.1486469396445
88754714 -61.76118736287445 -7.348422358491029
88974924 -60.30657936192192 83.73502039872194
89195135 -58.853582795832565 47.005569160254446
89415345 -61.41853741033977 39.87309326414412
89635555 -60.2902125852163 119.13069542814314
89855765 -63.697959658303304 64.4172232684028
90075975 -62.92166294111265 33.9507034271993
90296186 -64.48358783489068 61.852079024243785
90516396 -66.03876147335109 75.55983294697934
90736606 -63.35118642152149 85.7087708358078
90956816 -57.15023321730423 67.44341469700308
91177027 -58.292328945834946 51.714734207429714
91397237 -70.0898811221903 -71.28058516001076
91617447 -70.75091929335754 74.58674101912466
91837657 -62.26148113641973 47.63101783795517
92057867 -59.9902483061171 34.3094862110773
92278078 -66.31328191347893 17.064250043750683
92498288 -70.85540538208598 158.5685722293925
92718498 -58.2758693638072 51.72379286386966
92938708 -63.82893608114532 76.92423952605526
93158918 -58.81244995018701 41.79374340517786
93379129 -60.30265906158949 47.53341087957636
93599339 -72.90180725785751 -27.155362079753672
93819549 -55.57713023549853 54.84719458606411
94039759 -59.6081940320611 63.05848356691332
94259969 -58.87506750253274 61.13411522563832
94480180 -62.0221921837949 1.2469294224564131
94700390 -66.48792908104375 106.27105101834867
