!Output generated by mRS VNA Controller.
!Dual Port Reading
# Hz S dB R 50
2000000000 0.1653651700716346 -179.75205052328465 -46.81212871768095 -140.9021818124076 -52.25304258538898 -89.19873404682478 -2.0071694586223168 33.7007021238504 
2004004004 0.1673349797270353 179.9969026713609 -46.195290546721715 -132.8683958385197 -48.0540250726941 -97.68726510602194 -1.9623268894819514 33.870792978411544 
2008008008 0.13483472790744658 -179.6816409189554 -47.37588703006284 -154.45588129639296 -52.13280587551491 -128.6236214896394 -1.9416822084534946 34.10130382298162 
2012012012 0.11407666004956572 -179.68250142640105 -45.11322096337324 -140.4580849719777 -47.02339205615011 -66.204290005365 -1.930073744245956 34.46096291197598 
2016016016 0.1341962441458629 -179.67245167970242 -43.87449362632972 -128.73498980336947 -52.021997068832924 -131.60450275011803 -1.8925917380390458 34.441517051887615 
2020020020 0.13414804906288652 -179.65642293915923 -45.23917196528 -143.66437028405127 -51.89144880847145 -132.90330655938038 -1.8820716305143492 34.6131351557805 
2024024024 0.11791353676586686 -179.92801160649745 -47.82300684890768 -134.79726877595277 -44.73833395083831 -82.36887716071938 -1.8398979698444404 34.93277453759536 
2028028028 0.14026501378011666 -179.44515881008505 -44.737615294918214 -139.54513534472727 -49.74875481019272 -117.61071629388675 -1.7807352195244563 35.20117061165704 
2032032032 0.14444442981539365 -179.70328981733263 -45.08598681011595 -174.48878413254806 -90.0 180.0 -1.793890869177399 35.00934408094799 
2036036036 0.1170305428931134 -179.91622030888595 -47.390498449435555 -153.9943537555068 -44.6929681219492 -113.36396941727858 -1.7575625370628711 35.506028235365704 
2040040040 0.12239760022199682 -179.58167636349367 -44.411399372781936 -154.21943611742867 -51.58616078687783 -141.87816305166353 -1.7057574782048341 35.41286384183162 
2044044044 0.10640088713994718 -179.8543069626892 -49.0821449196727 -151.97586711338784 -43.494211181039965 -125.4321620606058 -1.707181340506818 35.74812948960699 
2048048048 0.11290876000172859 -179.64605040039726 -49.162229262833975 -153.19543548968312 -48.972069789612135 -82.77705550293693 -1.730242655438265 35.86548721297198 
2052052052 0.09285305418540489 -179.6630721073333 -47.14210993773656 -136.05930899937414 -47.36592909235302 -118.86494683264546 -1.6441113006347272 36.021779908464225 
2056056056 0.13484486508352272 -179.75814318288346 -45.649516531211816 -155.8350948276643 -47.31873766512909 -121.23121779687784 -1.6360624231873633 36.28117447358122 
2060060060 0.06827759213429571 -179.41883393035778 -45.09665607632519 -150.2061079823558 -51.52894028509928 -63.391649325447005 -1.580579045537356 36.57503211058555 
2064064064 0.08452757679226128 -179.73562413057937 -44.13519605808602 -155.10910429417453 -55.49044326182216 132.3521248067983 -1.6024186876362356 36.38802536591444 
2068068068 0.0823917461877601 -179.6027865557132 -43.55870578381328 -131.80779871015153 -46.22063901962018 -80.85044681186821 -1.5788622902827631 36.69216675861861 
2072072072 0.09055031080706606 -179.52757189968952 -52.27433582123271 -115.68377692105118 -52.42922215856452 -97.17709920820565 -1.5672836899737128 36.917676420657635 
2076076076 0.07342233484692885 -179.67794628937654 -49.971599169891704 -174.18117925459026 -55.567907366299394 -54.4903046629517 -1.56594649007241 37.25770288935978 
2080080080 0.08811244923726652 -179.40573189134489 -48.32131072851717 170.60823044789194 -44.429944297606305 -112.41798014862762 -1.582520427112582 37.51141369628975 
2084084084 0.07670187015269077 -179.3459830958546 -45.13800157390321 -134.80797100823247 -47.47023235740049 -136.6040969394481 -1.5862132689419919 37.10388252325639 
2088088088 0.04896736961424676 -179.43483978903754 -52.22870067914566 -173.69099458191116 -43.56628499158954 -150.01755001487587 -1.5591434005869909 37.66408957254696 
2092092092 0.09952933832792901 -179.46317240353753 -44.41032422914475 -153.53669031109413 -41.49077127468421 -140.54071651528676 -1.5753268014982111 38.12170123084668 
2096096096 0.09501676584188616 -179.20323879138732 -48.28383936706108 -141.4839232766906 -43.102661123720154 -108.38869323355817 -1.5675000048227896 38.20990167082484 
2100100100 0.06950337591999514 -179.41901146190315 -45.232297161333925 -150.73576071913078 -46.10702950046787 -155.40713178515844 -1.5970230382197157 38.65703556567612 
2104104104 0.09405062369578931 -179.66740130984047 -46.08301845283235 -158.1160334964412 -48.68615249242319 -130.06048577097593 -1.5985517647682734 38.92925058790841 
2108108108 0.033566153216093124 -178.99802380611683 -45.2073961271541 -153.89512075854736 -46.16700974551901 -157.99743277054563 -1.6316028130063023 38.90703021539027 
2112112112 0.03825032065625593 -179.25007274645532 -46.02370679173983 -148.31092669608466 -52.65756400415206 -114.91772185615179 -1.6234308112651055 39.62032588828856 
2116116116 0.02263700833156201 -179.52941888352674 -44.022918827360265 165.90274947242952 -55.68768370233183 -161.31983551893174 -1.6644048435798817 39.57857850948375 
2120120120 0.04481929612692838 -179.6457871221903 -44.28100907902322 -163.0369210842813 -49.58732756416726 -163.12497752160655 -1.6672425041208385 40.05487717602645 
2124124124 0.07203917905417277 -179.4387771470224 -46.798312932625485 -173.34685273990405 -46.353665920688265 164.64406574033697 -1.6554284836101636 40.37871563588796 
2128128128 0.08181652169964168 -179.3646094297756 -44.47306257422688 177.93418643277192 -43.94766682225394 -142.6816971653931 -1.7367082816702004 40.927622609686246 
2132132132 0.0638370027158926 -179.51000011555348 -44.89830171659291 -173.45757334772364 -90.0 180.0 -1.7013340128217838 40.7596308200715 
2136136136 0.09146105938377168 -179.305703999712 -50.90092299220444 -152.02921406734168 -46.49688708611775 -123.62421729353754 -1.7052551891370444 41.441610299950696 
2140140140 0.024190669094131124 -179.40280133963327 -47.845805816879434 -130.88347402542027 -55.535080289570296 -170.3347616437514 -1.706328185394571 41.63207557712608 
2144144144 0.05501254276083881 -179.59170053937018 -44.948148862290154 156.9008976294683 -49.47016977199076 -171.30839652551052 -1.7256682602009679 42.278262363210736 
2148148148 0.07434217270984304 -179.45733251972248 -48.905928585012724 173.7599329976633 -48.50532006045504 -146.28826478095633 -1.715260548840651 42.24456596157513 
2152152152 0.04693756735716252 -179.6643640910677 -46.606755527264454 176.89696704867382 -42.77968333490661 -138.16661817225818 -1.7404547452751549 42.325594166106406 
2156156156 0.0276210502549464 -179.66902162636626 -46.8488282069507 -170.60990827111218 -45.87132172051759 -175.18339085398256 -1.7651579357041802 42.557490575052135 
2160160160 0.07740896969689678 -179.72850405269534 -46.585907730679644 173.45259285259206 -45.84925239319703 -176.47513243433835 -1.7763480300098422 42.49049374057467 
2164164164 0.06829114507811654 -179.9245969215758 -46.511394482503334 172.14953499526223 -48.80348907904111 -132.7517199999844 -1.7902642049126014 42.85143899026349 
2168168168 0.06967451823923546 179.03168816862038 -50.61734347360809 -165.1467734013441 -46.28423616434279 -134.69135838965107 -1.750718224576099 42.04589880073397 
2172172172 0.07866028070215456 179.22481657401755 -45.51781187129008 -171.5651868528583 -47.14592658628446 -169.64891538501007 -1.7155298732140944 42.8990367883758 
2176176176 0.08797121829463944 179.79858819042494 -52.71650143949421 -179.71439735667937 -58.189666188432305 133.13939302032045 -1.802114386231593 42.76080627546938 
2180180180 0.06860079934635063 179.92595814658446 -43.15669166181632 178.40419730440072 -45.149162953379054 -164.78887999292525 -1.8192831220470609 42.80720063224458 
2184184184 0.10826306476219352 -179.95255686298748 -47.08553130621992 153.62649149957704 -46.918866724004154 -173.08561391807976 -1.8555476030882823 42.95256263040471 
2188188188 0.08880876275792898 -179.82725957004135 -58.709266123843385 174.93778019822076 -48.05645721157731 -158.83852533459793 -1.8840040673923601 43.05216703472027 
2192192192 0.09901660910356215 -179.89750204221292 -49.45768184267419 142.35647429378017 -48.01889522530497 -123.40987751231935 -1.9393487643045337 42.812969957238856 
2196196196 0.10711797276092172 179.9008252196338 -43.10296599723855 171.59059264836444 -45.65487829383013 -156.99729860172116 -1.9225571823085639 42.97442293245818 
2200200200 0.09644385491819805 179.83491240829187 -45.5589173427152 176.0770007021955 -47.90823864103593 -125.90012800590047 -1.9573758506355574 43.02457852464793 
2204204204 0.1156606852133736 179.82472158651854 -43.025458255136684 158.4306165571144 -45.586749174093306 -159.32054972586485 -2.0146383320394423 42.950727621225 
2208208208 0.1047878818219563 179.7591460571164 -45.234418549619015 -175.1256504069797 -48.322344726719145 -56.51479014661749 -2.059299764694591 42.945760593917036 
2212212212 0.10344087296512151 179.62126145201904 -51.751237032861575 -168.67115939763153 -54.799013109825765 -103.01956235928054 -2.0986162897302227 42.856127809534286 
2216216216 0.12203578933439803 179.6095176600904 -48.76023568781859 144.75987380661502 -47.78952467778521 -130.53029126749576 -2.1266251170889054 42.87975418477058 
2220220220 0.11279510789124868 179.676753577385 -47.79826608839214 169.73955711722698 -90.0 180.0 -2.1267820185298625 42.96944093201555 
2224224224 0.11015482619704892 179.54445274432385 -46.528487304611126 145.68215222966617 -50.749765016272846 -124.90985985524397 -2.1771662742569595 42.8775845155517 
2228228228 0.08426088254480874 179.75127373332037 -46.78605822134267 158.0256382151224 -46.54519554008967 -96.30657181278279 -2.199167934433493 42.69088755986817 
2232232232 0.08180131892885807 179.61650578331006 -45.72685870386562 150.31734857708113 -41.628244604823806 -135.53862487452045 -2.2120440125009906 42.70939697473157 
2236236236 0.09963017801035999 179.5986888224611 -44.67575640174744 166.09713733306398 -48.13376201142237 -155.0322497744344 -2.276627494925268 42.51811272100699 
2240240240 0.06493473423356669 179.3066406779638 -45.86469685761045 126.75889227164178 -50.66253708405716 177.10934346421328 -2.3114415039291227 42.448212090835554 
2244244244 0.10465173908759813 179.39307764458903 -45.35375551710131 170.43379233937677 -50.638204543033886 -130.79833032736468 -2.317121629514402 42.526935331785424 
2248248248 0.10726872785563815 179.51397212178733 -44.69840580137658 161.76597005429753 -45.28332456480474 -144.531916588997 -2.3122401471678016 42.49929417234718 
2252252252 0.0874075845054671 179.53380234372023 -44.6131177258202 178.16726278585878 -48.58793025382977 -114.43598456250847 -2.366645692514891 42.404375197858776 
2256256256 0.09790434651656149 179.58046051587021 -41.988654384346724 147.7053875199028 -48.58877473786162 -115.68439499842496 -2.439688513391169 42.43193499812871 
2260260260 0.09916181677485839 179.25765899904135 -46.809353218842006 146.40618660959694 -46.41194371703928 -128.17473784183252 -2.408078376344322 42.490043613789865 
2264264264 0.07195593025092832 179.34492091751412 -49.57770334223632 176.20924153727884 -50.5791019358989 -136.22983592484957 -2.4902835825476473 42.47742162211728 
2268268268 0.12192500910652625 179.0323995320601 -46.834097887065404 143.8389944423975 -57.551170479071736 15.732440113527293 -2.5028861776529796 42.24417943192472 
2272272272 0.03477589215121747 179.0612165117683 -44.89121448913123 142.45550894018754 -54.555983817443696 -120.22753693594994 -2.525305685739527 42.24330058508514 
2276276276 0.09009264022707797 179.00394689617914 -50.78533449045671 129.88672735485713 -43.43549718651475 -87.5020845700219 -2.5225476924295225 42.234629867175016 
2280280280 0.05882268393946309 179.28947527269375 -45.76294005233522 133.4113213149803 -46.42762667334412 -133.41051632477755 -2.5893119660851722 42.09014182700853 
2284284284 0.09332845162485653 179.12132343449213 -47.887050305676425 146.61875717805623 -42.21540048031783 -137.25400749111242 -2.6443317227252527 42.27971547881552 
2288288288 0.06254840028568798 179.09447693228003 -48.81785836070415 156.00693447641441 -48.53358146633495 -124.46747961774057 -2.635933563738162 42.36362076703364 
2292292292 0.09904936870310584 179.04825854527078 -43.707515951833635 151.13994663429293 -57.58505805181237 -170.5029761794439 -2.6897492942847707 42.22251575499457 
2296296296 0.08738224145693826 179.00500580532105 -45.648199659208174 140.84392438086974 -45.28961299056203 -157.51818482499982 -2.6772440067771743 42.19535590064554 
2300300300 0.07881283965959407 179.0779014954643 -44.73923513868981 144.4518222493766 -42.97688006623129 165.5538200571076 -2.79235690091168 41.81914214896171 
2304304304 0.06340426402139726 178.9066037282076 -43.93657927124542 137.0365810174742 -54.62385765206244 -128.51110009252497 -2.822947792418696 41.952594266408745 
2308308308 0.04410920362609881 178.92883614663148 -46.48051951658233 116.39859490700023 -48.118728222141705 -174.83425161216314 -2.7985311383201323 41.95678894276005 
2312312312 0.10587646876332049 178.7829998240259 -43.87558917376203 124.03897585923994 -45.117811974465745 -130.80827590489685 -2.8623551638700895 42.10864462972668 
2316316316 0.059259508719490386 178.5979642318356 -46.70481339558706 127.61991400839882 -50.75044350939018 156.4358914851609 -2.889590060357381 41.62416365715452 
2320320320 0.011408408721971528 178.6034886786655 -46.47685053857917 140.1029543528839 -44.76677196857102 -151.61214450142094 -2.970976384249386 41.46492044476954 
2324324324 0.053331487346250456 178.4785264615958 -44.560647625762265 135.9378615025954 -44.79844316848084 -153.0456183248898 -3.022539903789621 41.5710255286161 
2328328328 0.020958054131076938 178.46530520860645 -43.05786145964155 132.61562541749348 -48.32882069170597 179.25394889481728 -3.066788172443502 41.627766447806984 
2332332332 0.047136757531660495 178.4893224615286 -43.10464587467635 145.92028316300215 -51.91666228776014 178.1506469831744 -3.10887011616369 41.62719010959176 
2336336336 0.01694913839184938 178.48583572158728 -42.239349039150014 132.5848259894097 -45.660236786383955 -168.98429783488828 -3.111404198731904 41.13358662325007 
2340340340 0.020733241569880736 178.41676323863425 -47.763892600816995 110.08043126041494 -58.03213017624509 175.3041305794182 -3.180677484405189 41.333252628819174 
2344344344 0.023702748052794882 178.34895905233464 -43.00009279132869 125.73243335700168 -49.03891850920523 129.0293686175125 -3.2075978655536943 41.17580516844735 
2348348348 0.033026727386512224 178.02629749100495 -43.9025058560049 119.60928599310417 -45.14195167055223 -160.76327226889504 -3.2376739368787923 41.02855469886179 
2352352352 0.03871665087375285 178.25774136316502 -42.4717134569153 108.06802504352392 -90.0 180.0 -3.329782737115898 40.71105277132207 
2356356356 0.04497683868862561 177.9259945521798 -42.572838977896 149.6204500484418 -44.27977645667966 -137.40988835250943 -3.3364536926988038 40.81486793577213 
2360360360 0.02887397922225605 177.89577398706805 -43.949318356156326 114.06791889930196 -58.329007075438355 -102.08436390982133 -3.4176551270320044 40.58382360272012 
2364364364 0.01363560037446425 177.88653207572324 -40.79928543952859 125.20228191142823 -47.23324418331848 -137.1850587112539 -3.4346754945345777 40.641303452210046 
2368368368 -0.00977001285092204 177.5759393266752 -41.82307548219679 112.98346448132405 -48.4276148296497 -176.7858656835456 -3.514398711690685 40.47761043039368 
2372372372 0.040211812307146585 177.4886171386222 -44.614596828785096 114.33194467114221 -49.4405513997961 -152.06880316091977 -3.5310041088688733 40.721106058156224 
2376376376 0.019087256047051783 177.7294641615456 -43.257442117334925 100.97219430577043 -45.538276240465706 -171.95545696592362 -3.54484547563303 40.54244621992552 
2380380380 -0.009975885700176976 177.6883169736357 -43.75266660289695 114.23636624233283 -49.575936114355066 -155.32803017815056 -3.595018089347402 40.233410850298284 
2384384384 -0.002504728497352725 177.42283846144394 -43.350729885276245 96.76315808572608 -45.644645119526714 -175.92900431660848 -3.64422123752828 40.35169700527567 
2388388388 -0.008739384840205248 177.69961557423 -43.796344160984724 110.02853804698275 -55.75010202821099 21.056118482206 -3.6880389921859287 40.040727908035564 
2392392392 -0.020067720790966602 177.77952703564023 -45.451154961004036 111.33685134261337 -48.72813667609414 172.48120079341365 -3.712892174177825 40.11627062176057 
2396396396 -0.05096376157058641 177.4325019198049 -46.740088376504936 104.93912962018966 -43.77100575460596 -162.90394922026033 -3.747684110858984 39.77963441471794 
2400400400 0.0031537987500014734 177.413473868224 -42.74859148969445 92.78264521383285 -42.84776027200793 -138.1959754670819 -3.7394770289373835 40.02781688533734 
2404404404 0.010713931535556555 177.68662065798344 -41.887193726974374 102.42594090425298 -46.58910902762333 -136.05155175362387 -3.8315023758922924 39.4334352956296 
2408408408 -0.002379078294043101 177.47736100869346 -42.1802747652567 92.39550752728137 -51.97628443807034 172.23920435319135 -3.8394057351917206 39.49350783303418 
2412412412 -0.0026559794931785767 177.63680189340892 -42.947248084887384 86.76897641972872 -47.81060810728736 -160.01954549581708 -3.8485583849963656 39.58299894239598 
2416416416 -0.027118412420327892 177.51819934379756 -45.13558898687979 91.82142172952331 -47.935950706646935 -161.70628604131528 -3.8881328301179954 39.42848461706388 
2420420420 0.010228689437217924 177.4848372238275 -44.47680624441495 83.43369403182132 -47.92702771836184 173.5224816036624 -3.9066991994627234 39.09424289656716 
2424424424 0.04647076835447671 177.62232324922607 -42.878301843609556 102.73693476084415 -52.12205386202363 -158.89328240170303 -3.9271329850280634 38.81983182581839 
2428428428 0.047015149776426124 177.69774054049515 -43.73008187584772 83.85246049001071 -49.16607430226848 117.15047658175739 -3.9356056965752613 38.648337865098064 
2432432432 0.05468884174095172 177.44288969896945 -44.3872707235259 87.65744952947938 -53.20960048842 133.34155144762641 -3.9004168423244012 38.693628925573805 
2436436436 0.04570732281659346 177.5253800032668 -42.300407044251855 86.22160453044573 -44.1880957212987 176.47804053536657 -3.959492567445066 38.70893489919459 
2440440440 0.06349484707303261 177.3960512068741 -44.42411011116563 83.91296005511464 -46.72501266391972 174.19928601940927 -3.970465483757395 38.40647123414026 
2444444444 0.0653356205533258 177.75562229033213 -43.968631278368264 90.70769752903945 -46.288260638320594 153.9893982462306 -3.9537742783624923 38.235897329938055 
2448448448 0.046659323612943907 177.62263454487842 -43.61611162922331 82.93692811783913 -48.24890717199543 -178.33746607992697 -3.9671201382531365 38.12564744794768 
2452452452 0.08428808742398641 177.9162277556262 -42.82505320125605 83.82375810758141 -46.82247789089232 168.55189174749262 -3.9878593093375807 37.883329712129964 
2456456456 0.06778432070996283 177.70846579477183 -43.39785773504343 93.51405622892528 -45.460977676010366 174.71343233195074 -4.017824111937866 37.54812833423924 
2460460460 0.0935459432713632 177.77203408931442 -43.19165313996032 85.47637317957052 -53.48449185094562 -150.71531201143267 -3.954395179912504 37.48077485556807 
2464464464 0.08703608724739582 177.84435206405715 -44.19082122301135 57.41182840403462 -90.0 0.0 -3.980474355711505 37.142756086304885 
2468468468 0.10138491463258327 177.83062061401228 -44.603750425409444 70.7844976783838 -46.550496344028254 178.81199079246267 -3.9797130259233864 36.88009761663749 
2472472472 0.09908777573326576 178.10349296257723 -42.90705059781713 74.48516268865215 -49.619250040535164 -174.82672314992107 -3.9861769253252755 36.34137924824913 
2476476476 0.10242211595025809 177.8932072355177 -43.73052970762991 70.11438559650837 -52.67246154315281 -131.89479844340767 -3.963717072078717 36.31853063270803 
2480480480 0.13895333935477458 177.99327990248617 -44.132846728715684 74.5025120830684 -45.710796891958125 -160.4898439933141 -3.9155772966826325 35.86545730388702 
