!Output generated by mRS VNA Controller.
!Dual Port Reading
# Hz S dB R 50
2000000000 -50.16014665401763 28.965639605172147 -50.9198702718174 -68.05539700463072 -52.80610415222755 71.51920299196777 -2.096522017980986 33.86516493600799 
2004004004 -56.16521781456836 -61.64964237498842 -43.86692135229982 -59.41964645310609 -52.84498996243865 123.60481998159878 -2.0422960078430688 34.03770348813087 
2008008008 -56.13281383500656 -61.753163911325686 -46.63241255762684 -41.73496066947945 -47.84517675239535 -174.40925957535296 -2.0393156701579125 34.44550669187028 
2012012012 -49.63550854905424 163.19083571663234 -46.54868427545879 -43.21883729387929 -47.65532987879662 -161.33415972739488 -2.000719226271048 34.749150618700945 
2016016016 -52.181995521680804 -43.627977110397275 -54.64727406487435 -56.47518827893565 -48.87770424458981 -142.96918325337123 -1.989178185710966 34.67165502820476 
2020020020 -52.16689572163297 46.17330150765774 -53.5652301910066 -84.91249644093756 -50.03206622387477 163.48384898690142 -1.9608615706138517 34.79084677849008 
2024024024 -52.1694249437128 -44.154865486626264 -44.99305088753861 -60.02316708448844 -54.09095680851628 -179.148119654904 -1.9090910968340418 35.39661404130143 
2028028028 -59.17054664093214 -17.63422073038643 -46.308094943900464 -73.36073261956584 -57.171372955591416 134.67941148109324 -1.8587636961405103 35.49530031089639 
2032032032 -46.60518916004121 -62.70851247528628 -49.25789344848718 -97.86063014280559 -57.24842339060933 -136.31702754117626 -1.87077848761224 35.53707484778846 
2036036036 -56.12766698293636 -152.89363466299548 -48.00349443798308 -80.141050110466 -47.29802098681685 151.12504032309417 -1.8345339751356768 35.86174629152308 
2040040040 -56.144740832943754 -63.19886859402787 -54.23303823971366 -68.39725055478638 -49.18006539951352 142.8607611398442 -1.7729694422639233 35.997453244640255 
2044044044 -52.18015515475696 -44.93130740704989 -46.216097146854835 -70.39257531489088 -53.36834444409628 149.04545726511404 -1.7746317044865325 36.10612720717345 
2048048048 -52.15667835880322 8.139225804645513 -47.16495247160974 -46.549834027663735 -53.464095448378266 -158.8353338349338 -1.8214856069499534 36.40427852089746 
2052052052 -107.75505013910596 -163.620380181644 -45.994437136801494 -86.89217121880364 -51.446244004987676 128.85616984958284 -1.7273552604634987 36.44602167189286 
2056056056 -53.12542254938073 -18.800446089185364 -47.820295382846695 -92.01588088765328 -46.323336826819855 -175.95767195739867 -1.7012515020150962 36.70227414953591 
2060060060 -56.13415345010271 -63.82089113589981 -44.13553991500842 -62.21513129245728 -54.51666185569301 171.80887367048567 -1.6625512207546411 36.94779098032907 
2064064064 -53.12433091583645 -108.99512809044703 -53.1432486286719 -56.69971115023932 -49.413786036092944 -155.346413156684 -1.6912110062715686 36.881964396842754 
2068068068 -47.99626811931421 -52.87341283947907 -43.194887924651454 -77.49275984043904 -53.561349515896865 -163.3304429046573 -1.6507956699502468 37.12341228599976 
2072072072 -59.15024680444128 70.77589549585524 -47.54275471287377 -133.19248904120067 -57.55571026189661 -145.72321828335643 -1.6604077883518051 37.587695077913665 
2076076076 -52.15288007007035 -82.94400239210216 -53.21216268220806 -63.84413723681077 -51.56354138668249 123.33558500316731 -1.6492658473607382 37.92296115699603 
2080080080 -56.06995851456305 -154.45444777551862 -45.56778417735718 -70.31015489920803 -45.56036638640437 122.49077539887672 -1.6655752228207086 38.12371937865251 
2084084084 -59.11197045271546 -109.75292440834522 -48.17705579383589 -94.1616761068845 -57.584744357277714 121.21296309473588 -1.6675254601922016 37.77747996403781 
2088088088 -59.10921256744065 70.2199711717613 -46.24320206257611 -133.18182358120134 -53.58081266623351 101.95205628762746 -1.6465785358901126 38.396998353253565 
2092092092 -53.092258526906136 -20.21119481102346 -50.267350153165104 -116.42000941049194 -49.44232308622154 -162.10296844931557 -1.6629192837047015 38.74684054163855 
2096096096 -59.12184429650086 -20.362439275373433 -46.305279571256634 -99.67462976866199 -57.55723806044567 118.059754691698 -1.687823361385644 38.81555944241839 
2100100100 -52.09713918933904 42.8787507087934 -50.28377479988988 -83.29699358878695 -54.54911081159335 -107.80907383519957 -1.6836866434945255 39.23391556772841 
2104104104 -56.065435589547775 24.01849533016513 -46.155480425418986 -91.56205044191202 -53.564167958901045 -135.4164146112476 -1.6891341200630952 39.61978036055594 
2108108108 -49.55974044022332 -110.84635942766431 -54.2764065474514 -104.27943398914955 -54.536876550363345 -110.60968763020252 -1.7369326875662838 39.62458879245936 
2112112112 -59.0762922031529 -21.228387795207635 -45.66601570535137 -84.39639481697652 -60.54235885328738 -111.30888309566146 -1.7369170959353268 40.29200054493148 
2116116116 -49.08412483588776 -129.84025347923333 -45.633149981243335 -85.69150637057628 -54.531254716731894 157.1255296927491 -1.7757606874988916 40.257563627057735 
2120120120 -59.0634165124989 -22.012325301450744 -45.58671178826031 -87.3843064604452 -50.547697876575974 174.15745954184302 -1.7725358325895209 40.623755553476954 
2124124124 -47.016151551024066 -111.98153897557323 -44.66874228171929 -110.40196773637325 -60.55034619377228 64.56018114375026 -1.7581331310707047 40.999260837227574 
2128128128 -49.043600748096885 -40.77889829106531 -42.04631684852732 -119.11937953505513 -49.427396984601344 119.67581323825866 -1.8292823282643607 41.54100275051488 
2132132132 -53.03512367398744 -22.714792235792615 -47.871752249665604 -99.53984573922058 -47.52275484691019 125.34970959606682 -1.7956327249455648 41.32657663372055 
2136136136 -58.99778656189397 -112.92941515803687 -44.80056377177577 -83.73502209960385 -50.543180838880716 132.26096239948893 -1.8323191259186866 41.954358696000746 
2140140140 -47.00894353526082 -23.21396753507585 -47.81579728554825 -130.33190453777522 -53.540231621967756 32.90359251058059 -1.824695120698137 42.13779866775767 
2144144144 -49.508168477636154 156.61911345459873 -47.01819931809756 -90.74415746344314 -42.89844065351111 124.40686658981213 -1.877960969961602 42.89971084220219 
2148148148 -59.033861284578904 156.32221002752658 -43.93596558004728 -80.1774202569205 -53.54445940995107 119.94856924882211 -1.803202970194534 42.656827259138645 
2152152152 -103.89863756988149 -120.05910194960676 -43.01349954630127 -111.40798358983469 -48.21732641508217 159.24168689782803 -1.8482102250407382 42.83423792243563 
2156156156 -52.05462335000672 -51.24293599793782 -44.409109149862765 -121.03391401617905 -50.97453572932669 143.7055630709741 -1.9026244046609038 42.91460315382433 
2160160160 -52.059510931594666 -88.52122908558536 -45.80520309981496 -133.47874296792958 -49.39145422773627 85.60357127232831 -1.9015921125010324 42.93974624869345 
2164164164 -59.032265859135855 -25.334176409506913 -45.90805171946685 -123.4739293085152 -60.52362067180035 140.59722540172055 -1.9143852818614513 43.30386814226179 
2168168168 -52.97564864742009 -116.3682465171689 -44.79752821385344 -80.07813138488693 -51.42730577876484 92.85073790961926 -1.9050700134707068 42.735562001763185 
2172172172 -51.997853676687534 -90.123725795191 -45.82846448402391 -126.43150183942602 -49.30027438553539 170.06492772261757 -1.8532905334026255 43.55787333604689 
2176176176 -56.0155850032978 -72.19067079054761 -47.434670432602324 -141.37203928188111 -48.16122960663308 58.667407581801314 -1.9651961629274202 43.06519660510313 
2180180180 -49.469355325797586 -27.48485805611917 -42.80678731190374 -128.61080435154898 -53.47007798445694 159.476451838968 -1.9942405271167296 43.20168212600458 
2184184184 -52.03217312856796 35.73159424694915 -47.32208813298023 -143.96125280823838 -45.17155324776728 100.31361893573154 -2.0078061398586904 43.302005352528425 
2188188188 -59.0028842176579 61.80989260328741 -49.59034244614965 -149.37578167927438 -53.54263857566998 66.2594153280578 -2.011340136210304 43.406954833004676 
2192192192 -59.008198515188504 -28.534469538286334 -47.269213124165745 -146.35113680956343 -48.26063792119239 51.99331140031458 -2.090445115618185 43.18480855861705 
2196196196 -48.997799675192454 -47.35890097896805 -45.350113746429706 -144.58592673665453 -60.52921240917339 126.31684749828443 -2.0727837446156983 43.50969060926428 
2200200200 -52.00095720459746 -55.92209308820534 -49.440245683134016 -116.19932361908774 -53.56141109653099 -171.9248905885882 -2.1035529406330693 43.3439269231565 
2204204204 -52.98097462455151 60.34918993294635 -47.385351651800335 -135.6492374051291 -49.44413508504309 89.13100717335641 -2.1704136498674105 43.249644387655096 
2208208208 -55.99351260622183 14.932634300163842 -47.346513161902536 -136.80801690002608 -57.63110925520745 76.2910732881222 -2.2220923036937297 43.27712397588999 
2212212212 -43.30636961395253 -21.021848402748745 -49.354505793302366 -156.5679950801286 -60.624288231967085 -60.28926706903411 -2.2258911951334497 43.10008151047256 
2216216216 -59.0240343708808 -30.98006985942838 -43.627195598181984 -129.68533118307764 -46.69322860448023 81.0868848500467 -2.2958581000075133 43.24958280415088 
2220220220 -59.00097894376909 -121.154073081473 -53.26466755547635 -140.47219159762201 -49.55027229852587 -29.780234748071063 -2.288602885641322 43.327059587521845 
2224224224 -49.95634228984673 103.5129273221287 -45.08988771633796 -130.3547337079566 -45.709481905705644 69.56362325876387 -2.3498225715810874 43.334696150160134 
2228228228 -55.96961894718352 103.20758672459125 -50.16126526441491 -97.93516978380576 -51.72536360625326 68.01358816464456 -2.374302065050898 42.998260080436964 
2232232232 -47.859060291209595 1.5962255908674816 -39.87444093982746 -131.47668151859574 -51.745965068962214 66.5256125687746 -2.390265269843728 42.97869651096043 
2236236236 -52.009645976487455 -95.89056265619011 -46.86019335051999 -130.93623396285082 -90.0 0.0 -2.4095225834099883 42.70801539603548 
2240240240 -49.997250757205435 12.238655572728934 -47.095446199959284 -146.32774269124943 -48.50865681147734 94.26624689958749 -2.475719097704968 42.57836836339303 
2244244244 -59.00166281293033 -33.15997949204768 -44.97233420034447 -158.48779520663354 -50.85209321303688 178.7299010764718 -2.477502996484465 42.70646016621857 
2248248248 -46.687968232905554 -19.223093100644547 -43.53034528895008 -148.37260534181357 -50.84055677226792 87.1668830379536 -2.4588084217970616 42.751647202724435 
2252252252 -52.97320457789999 56.53838618133305 -47.956990208893586 -115.6783264149962 -57.826690407032146 59.231415063422794 -2.521125509120541 42.57326190820471 
2256256256 -47.84563019360374 -67.33136084344075 -47.963012991214 -116.69334347647475 -50.86938147455987 121.04854166923258 -2.596469098485258 42.680792652751926 
2260260260 -52.00261994260943 -60.45200332381727 -44.859156918193214 -140.13733574282332 -51.33619370373093 101.22013490902363 -2.5831577588832184 42.627223294284775 
2264264264 -55.98848007636582 10.92152106792213 -47.898793298198534 -118.78228225864268 -48.84619686320582 10.111062828027396 -2.63703298309153 42.638043839970535 
2268268268 -52.00838374504083 -7.64941140911581 -46.71793807715826 -167.7628044211953 -53.900517260315496 72.15173472293054 -2.636110915224419 42.36278983824226 
2272272272 -47.87795915351411 21.870866112518694 -43.70828191941814 -123.83131285576668 -46.91046564842546 60.30458870617091 -2.672526864582303 42.41551583872874 
2276276276 -52.97125328593742 -124.57136023299071 -46.45587850628559 -110.60778654106325 -53.9381827343945 32.478053317454695 -2.681029001429927 42.27160959699321 
2280280280 -52.01870200719746 -61.24767369918251 -44.385930691674545 -134.74697788723557 -50.89390526401114 76.04984737612634 -2.7396663885703756 42.343033661408384 
2284284284 -52.00945113717957 -8.05090018613576 -42.45042323183446 -131.06388798326188 -48.5851516942088 17.201344037570085 -2.785834654562555 42.319711928446445 
2288288288 -49.98324474190987 10.161954630663079 -46.69235520618125 -144.83040535888873 -53.868450614598835 65.56203793164318 -2.790961374619455 42.45598176011908 
2292292292 -52.024514421688934 -61.42801757745782 -59.016214628116714 -159.70797384533648 -53.86671720880127 117.00072585241612 -2.85575332436945 42.30207533844251 
2296296296 -58.995209842687444 145.01148401245277 -44.83690047998308 -149.5446830683751 -53.84343462769838 62.544965465751325 -2.83988194884432 42.31912214280252 
2300300300 -52.99862602806641 55.03257383655789 -45.9802992003399 171.6086102384162 -46.91191689205051 50.80022957797502 -2.9411287581967933 41.903278875548324 
2304304304 -49.03823212473016 126.41061154518613 -46.709935861380586 -148.60225433812755 -57.825063187770944 131.43328538649794 -2.953996418970997 42.0301087511989 
2308308308 -46.74132482863382 -49.2903919551009 -45.055936975341865 -163.81480266058702 -49.71127303198599 28.68109146822426 -2.9470757674089274 42.04249078977368 
2312312312 -52.0584280903386 27.983313115796005 -41.89338694932775 -131.0342510635797 -46.16666784177699 105.29414001089637 -3.0098122931334537 42.31085512594742 
2316316316 -49.520887916684025 -125.6155316288582 -42.08543139946437 -173.84902913872497 -46.81655066794307 45.182816991806725 -3.0389046212005635 41.71646452357201 
2320320320 -47.04654485829362 54.16239672246631 -46.10209652536913 -140.43155632904515 -57.81993630828039 125.54010228694237 -3.1177290631839667 41.801561231732265 
2324324324 -53.0542672599507 -35.97423442064918 -43.57460001049095 -168.2392469370269 -48.74057142317602 78.8500879533707 -3.160678399189698 41.69188685763259 
2328328328 -49.09969260566237 -17.86681836955906 -48.04157947958195 -135.48365055296566 -60.78656226041437 167.32120922335145 -3.2157671418946836 41.7408109016879 
2332332332 -59.11909499063553 53.46346277283115 -49.23632297300085 171.45231807298157 -48.72584704487914 75.68903831181349 -3.2620727957346993 41.701381400535375 
2336336336 -59.1446064354551 -36.83288984072752 -41.16439237833304 -171.27944971739382 -50.750638509789695 92.33937410335747 -3.267857501738853 41.283932918657186 
2340340340 -52.16712149638806 26.273921138462544 -53.26997970953763 -172.78734762509276 -49.64902293095972 16.19924240380146 -3.3006387081395334 41.46493089839907 
2344344344 -56.17254364392676 7.297544286785683 -44.69367905002967 -152.11975092924024 -49.609925706800865 104.18351065656971 -3.3635239280643656 41.34011236346063 
2348348348 -52.209889290250075 168.32732440551854 -43.35287871579582 -156.61804917589276 -48.74480920541602 68.6092377766605 -3.413785161236529 41.1010862426436 
2352352352 -59.236243108557744 -38.53045512517242 -47.121128679407825 -162.4598336558531 -46.63718558132773 55.30642174091047 -3.472525896748118 40.83619980961607 
2356356356 -56.239793495717414 5.800924091083908 -47.16443337264298 -163.66720854199968 -49.622008304840705 98.67179119250278 -3.4850542404590517 40.978495596992325 
2360360360 -53.243408609117715 50.27406452808401 -46.96858731271413 -134.09826501169 -48.27618498414832 18.056318792297393 -3.5487559347502367 40.7392763290504 
2364364364 -53.28983331657322 49.78980754152654 -47.221297231275834 -166.39145145683455 -50.811670154918644 79.32251662348436 -3.5803141032268613 40.940941995769094 
2368368368 -49.33429401602284 67.65857737546827 -48.41822734370285 -148.2361492322802 -45.52953697383016 89.70764602688811 -3.670715087634549 40.780704179480686 
2372372372 -50.34286640928027 3.5068044156191345 -48.477154119004815 -149.62942140202776 -50.83721052933112 38.625990910171375 -3.6750731303754662 41.03886835894299 
2376376376 -56.391685212237576 92.92727397717776 -43.53647578975998 -145.95909445410786 -54.85365022580545 55.02937745615907 -3.6828975764846024 40.57247338914117 
2380380380 -50.416178993379546 2.2501714553091903 -48.563154101862736 -152.52314341977097 -49.749623165563804 19.37168240488473 -3.739732776597748 40.30668751302502 
2384384384 -59.47776084713786 46.623057164344004 -42.8078425088998 172.05921122025507 -53.96161159280011 114.38086316317184 -3.7871738360247202 40.360793194246504 
2388388388 -59.52102793245558 46.037548387702216 -52.7951019206582 -162.7497300808876 -60.96891568099531 138.86728616130085 -3.8277628548610565 40.25085483860239 
2392392392 -52.574227554193044 71.87435159053486 -44.081500274971354 178.39120730346693 -60.988616399940945 46.9364509568212 -3.879501175291952 40.21137470821924 
2396396396 -45.63568834598777 -8.596753548502315 -42.21658289832774 -169.27637009896642 -55.018937682941115 134.8780416982248 -3.9152300110687284 39.96168505721754 
2400400400 -59.61913965796405 -46.129008799700806 -44.55356609795974 -135.02052649911954 -49.959163153982885 8.851371075384336 -3.88817354637285 40.11389504263179 
2404404404 -56.65476057226045 -1.812205412517492 -52.90257416794844 137.2270799942828 -54.14836397304925 104.13243450125691 -3.9644380354842426 39.65239837167134 
2408408408 -59.71920494274212 -137.44546130807447 -50.386200314002934 161.89882897486916 -49.14872125446315 38.524900281207856 -3.9936624435020667 39.64283964932811 
2412412412 -45.777361385939386 5.03430132550175 -45.96148487025729 -162.98494893704023 -48.942162035718006 22.559362598912646 -4.001828266572077 39.59231619447427 
2416416416 -59.78977172564112 41.362103397696345 -48.838958746110556 -167.62970590708554 -55.25419218339025 34.920837302992545 -4.018490724790521 39.377011198865596 
2420420420 -49.82640715341635 22.167603430432468 -50.98259679231616 -158.1747822509436 -47.1846572396195 43.92947377490461 -4.048984616573627 39.27519309005082 
2424424424 -52.86661560151069 103.5419757087814 -46.05400273974019 -168.29789458162082 -49.08504277196907 44.62923352416316 -4.074942698021261 38.89946307921643 
2428428428 -46.887919145457325 -24.077969573687326 -47.09239025905915 179.672938124496 -49.10704199658685 42.74671944282468 -4.10014229002836 38.851629951000874 
2432432432 -52.931357113355816 -24.583570762543243 -60.11582556626213 151.19584703386755 -49.160157374408726 12.747080505164542 -4.076324854347881 38.83273859375724 
2436436436 -53.94837242404422 -51.78898666777687 -46.13901468764317 -173.59993584900823 -47.53970233655338 61.655242895468476 -4.112260056389991 38.860476389114176 
2440440440 -49.983532744643576 109.11828179433164 -46.17390684478187 -175.7900586537621 -58.492456430282886 68.21929384974422 -4.123754494409372 38.48822626015563 
2444444444 -60.00828360963513 37.073480191542636 -45.554603406888816 167.55012080742998 -50.43771846079214 77.39340370047043 -4.106636140065687 38.32473473595261 
2448448448 -54.044520049977066 -53.45644081892386 -47.940341793459154 158.1083723646206 -54.63262669714753 45.77965909163569 -4.125773996123113 38.19019075755372 
2452452452 -110.19204072710538 -32.829991305504834 -43.69242026239577 168.90983738505554 -48.61567765189925 44.147918093652656 -4.13721448947106 37.800328528123835 
2456456456 -49.01151916328153 69.12541782848568 -43.1387728314511 174.25470634710794 -49.35238418284016 1.729423969476128 -4.1673566515067 37.47486417369132 
2460460460 -47.85239129443486 48.99880357971659 -47.80960846955783 -176.48457291905714 -51.70557215236492 32.23315513355955 -4.103458077890521 37.412519012078654 
2464464464 -60.202765188348486 34.304004571971824 -46.39805078954811 173.70891816854981 -50.59493965176063 -21.389738344214052 -4.1165984008750485 37.22878976567669 
2468468468 -57.18740635814054 -11.232009896064728 -45.081902585341794 166.05123356744028 -52.167464110389965 10.332881216637652 -4.12835946090685 36.90554570369073 
2472472472 -57.24064711033303 78.25963395368017 -44.33231844787129 172.0654136635446 -58.718845728068096 53.54571116244162 -4.129391846215836 36.40801288621076 
2476476476 -47.256828040987166 59.22407574619016 -46.51691199864197 168.34033584499736 -55.709269789928875 6.674782485614222 -4.1018426685476985 36.35436206951311 
2480480480 -50.75268267503204 122.04026352270547 -49.38574214761627 163.30932934686786 -52.71137093071741 49.999573059547565 -4.080989253157495 35.96617474099017 
