!Output generated by mRS VNA Controller.
!Dual Port Reading
# Hz S dB R 50
2000000000 -0.005944739875408462 -0.16608975714394933 -47.58762027309098 132.93471912652137 -38.10869165019474 -29.6147650564804 -1.380261403886863 143.4207476112048 
2004004004 0.013613533911464453 -0.11707625791611062 -49.610402006336585 112.76778132345359 -42.11250471270313 -49.08379219076628 -1.4107477832419533 143.3531401288969 
2008008008 0.01527058693539236 -0.16167761359707875 -46.555482217868544 103.05685678010836 -44.105751995319494 -43.11745955814669 -1.4979557994610007 143.28581102135362 
2012012012 0.016674592151645008 -0.2080022715104477 -46.5340056392988 101.66000598085084 -41.7753782379821 -59.50295092400788 -1.498894948358873 143.41707159299656 
2016016016 0.006543664477108876 0.01275190857855124 -45.52002770034109 89.45358028867716 -40.7411913701834 -57.04391546228696 -1.5684536140315202 143.4677279962972 
2020020020 0.018453114781021917 -0.10851767100802905 -45.278500129454066 113.55319885877375 -41.399036779234635 -26.977448898142843 -1.5502088465144799 143.568667411855 
2024024024 0.013320348347160355 -0.16285042517227455 -50.39702835849113 78.48241305109943 -42.50914083706783 -54.4262589359349 -1.6563576078676459 143.71083694843873 
2028028028 0.006155575785903529 -0.17386776061475384 -49.322874834085226 103.39066947018149 -42.989137989827796 -46.46299467717873 -1.6808863565087293 143.9119416576349 
2032032032 0.009438442350604566 -0.07667459644390491 -44.65828940073719 98.32105682507093 -41.44955960456532 -53.5804206283637 -1.681086806295947 143.90967266485882 
2036036036 0.022645541898636896 -0.05929591545479321 -45.04603192454235 130.08642777642933 -46.51666622984365 -24.625270253084018 -1.7738591123729268 143.85014379691813 
2040040040 0.02488702730574442 -0.14623954798012745 -45.15956821261191 117.13520780517787 -44.686705757271866 -50.700149436878526 -1.8051730371573709 144.33378053959825 
2044044044 0.022181104405719753 -0.06190212535764849 -53.073017464391484 115.5949420477325 -44.74512369648858 -28.95001323233295 -1.8315906926736814 144.37266366909765 
2048048048 0.021854199100099204 -0.06361290603710124 -43.046221027030924 94.87273838928412 -43.303106962330496 -50.71850835120465 -1.8652073492867818 144.23179976167808 
2052052052 0.011943044373555754 0.05726779956659344 -42.932863334835865 93.02103176289427 -41.827303901242594 -25.706317766270114 -1.8691847364644754 144.62539756363378 
2056056056 0.02820695443673267 -0.058012944253414404 -44.95737093415247 109.8566689665093 -47.96253513673197 -76.28468788102099 -1.9298327201450607 144.5919640076586 
2060060060 0.015014034160172024 -0.07342273766195971 -42.890702890721855 89.20420302917597 -45.19881311780138 -43.181056190761495 -1.968389185285612 144.82132606586867 
2064064064 0.026005015901190823 0.02578731756132685 -41.71203164577431 71.88189760503809 -40.54852571737644 -64.56011513556588 -1.956895381509237 144.64448672760366 
2068068068 0.020390930617970347 -0.0246939600717715 -49.35575987418433 104.02452118926033 -46.69149632794242 -89.49064055859496 -2.0080623649596876 145.07973131208087 
2072072072 0.017797982054533274 0.10203896119833075 -41.57550658439854 118.21003013808212 -42.34377039941126 -45.365720329896064 -2.0453489146935566 144.91790927887317 
2076076076 0.012973025677508226 0.010519983814125727 -41.253025428488115 77.14109621507357 -42.302324147991655 -38.266233178504145 -2.117658715074003 144.8333603348958 
2080080080 0.030514488750030957 0.1564124421243175 -44.898677228704386 98.87173181492165 -47.0189832715436 -33.340583633485075 -2.1033356829695298 144.5604417687947 
2084084084 0.03206500387065193 0.06709600155438593 -40.55886442830736 82.89974854844517 -43.173439339478904 -86.77326530907287 -2.082585075200501 144.6159226873129 
2088088088 0.019694892297734405 0.01324022130959445 -41.66418112311082 79.6877820388024 -45.36150277853107 -49.064979992762694 -2.173085036018714 144.5733703010105 
2092092092 0.026349906272887635 0.01773105618913656 -46.925851699399324 94.24011174072356 -50.29882043498267 -95.2228939726162 -2.203048175592602 144.46782748132546 
2096096096 0.013111391250022423 0.007992654315896196 -43.71008243747614 61.741055730398266 -47.02758843915372 -37.35741928754197 -2.205723091969636 144.32320285216437 
2100100100 0.030572634961879036 0.19257082383973698 -43.04382492133499 72.73968708837963 -49.834723285298885 -52.292191526139646 -2.2958800727720403 144.13181196011485 
2104104104 0.01317919678409494 0.007480752667190426 -43.03290462422993 38.72576934377777 -49.349783360925706 -71.9486893349745 -2.3300815261616714 143.86651703277388 
2108108108 0.038703176361791145 0.10986313274928929 -48.015573141555585 55.04626013824545 -49.32535316364647 -36.504782087221116 -2.2985320370971065 144.05441324977065 
2112112112 0.011103075613642835 0.18083818364965992 -45.26177791510001 34.46390791992966 -43.26576370642112 -17.30629428747752 -2.411053462343307 143.72916640624987 
2116116116 0.017099723080372588 0.2734869642305646 -45.27581758499398 49.534921438762616 -44.04272349748767 1.5761958901381563 -2.3919090395168547 143.35653635397725 
2120120120 0.005244202438600809 0.13503279231402604 -49.69692579894872 85.40667728411768 -48.25503239314542 -25.21594831553985 -2.4103372256980715 143.39565598870226 
2124124124 0.025446840693288123 0.14489316264608576 -49.75922928519145 84.21712493666791 -44.370114392760804 -15.073809981834835 -2.4716362795282047 143.25492749506495 
2128128128 0.032246231480208054 0.1454881725192655 -49.329940822616 64.53442631033928 -43.30750818100418 -23.058228733031132 -2.5362094685655636 142.6280892487603 
2132132132 0.019746142614002468 0.051395139146201335 -44.7062781190657 59.85809697947911 -46.89583946772213 -17.810194952754316 -2.5492988810462043 142.9187249381547 
2136136136 0.026019364032910913 0.1421236360256836 -49.374956160945985 62.49370849866366 -42.496032359961774 -56.12643852354729 -2.6031430545453285 142.7852610341737 
2140140140 0.01929084756200571 0.1396509416171652 -45.42770228545986 79.63722739571335 -42.60919123843519 -65.5697482863448 -2.637438486268846 142.69698405833438 
2144144144 0.013115877003180114 0.09307862981016737 -42.43013799970227 70.79823632696791 -45.56532247153373 -14.584658440356884 -2.7006248564466615 142.4326458412476 
2148148148 0.013120083803265984 0.09309065231222277 -41.824159289067744 54.45004983655937 -45.411713873838906 -57.395032335988724 -2.685128071700864 142.54151372672555 
2152152152 0.019889709797090465 0.13945771370304288 -52.48430163715845 50.57674394306003 -45.56519318045127 -69.97269391399269 -2.691973222131354 142.3175879095474 
2156156156 -3.393610108152001E-4 0.09001129267547604 -43.95432976303159 75.73332204465436 -45.580842093649636 -71.41648734438604 -2.747769302152283 142.06262449953178 
2160160160 0.006670225801814829 0.04593844275576103 -45.396132258968855 86.06872003285581 -47.260877092493246 -59.088392475509075 -2.7214566636082287 142.09336498073074 
2164164164 0.013707381512175605 9.55785795735759E-4 -44.92150636233851 95.80225283816884 -43.929393075914106 -65.13378976683444 -2.78725043595647 141.87491505793918 
2168168168 0.006758194790130487 0.13625138561659178 -43.46020762410312 34.15120499429472 -42.54965841407024 -68.78123161978854 -2.6990809532919235 142.13690564264476 
2172172172 0.02066458136838393 0.04462112908334881 -45.61968534850455 71.7448094385032 -44.30756158030819 -109.65063950751431 -2.791845637528902 142.14048407342537 
2176176176 0.01382226975738239 0.044127774195928435 -47.55869889509832 70.87397111544999 -43.892970430855115 -70.97866142178442 -2.7387315534388286 141.57394819852678 
2180180180 0.020873341878873682 0.0888514193725441 -52.58156607142958 96.59832762188037 -47.25846628905269 -67.98639216544967 -2.749606893974587 141.57588767649284 
2184184184 3.352198130893082E-4 0.09065537199498373 -44.24537170504025 99.94692246859444 -48.488860125675295 -50.336595709671855 -2.766296724007775 141.29668138828674 
2188188188 0.03469137376694585 -0.007383658655833701 -45.39196190217413 56.734856342450534 -43.14697938754066 -58.93271529539916 -2.7681088614474354 141.19374762214088 
2192192192 0.014340228410371643 0.087584190207187 -44.932430588119956 88.55548305863047 -44.6313803214077 -42.28032961075491 -2.721064117910315 140.67690021098156 
2196196196 0.028534037426453468 0.12977023093029194 -44.922801037165236 87.89290662943537 -52.70672644264253 -115.4215255290556 -2.7574586569084643 140.83185097872973 
2200200200 0.028449474015862505 0.08319409465601643 -45.34815763281317 53.70876636922444 -48.58015098387934 -124.042673479267 -2.771062657745718 140.65653843285216 
2204204204 0.021255441702438205 0.03818448197152745 -45.34975683030429 75.23191994126056 -47.436696004130994 -78.25517921629937 -2.774096327529225 140.2452461309467 
2208208208 0.028263605654164872 0.03466194942325992 -42.24355325558378 78.69809527499497 -42.88922736015198 -93.88837786510109 -2.724797670693958 140.11375588141507 
2212212212 0.028642044341850977 0.08032878702485818 -43.785652415998975 71.08956615455011 -42.526391858196455 -111.35668489794115 -2.707539506038013 140.12205550933896 
2216216216 0.04095207677629848 -0.11178824292740826 -49.46639252750673 78.97030680486804 -47.27349695292744 -52.30724693479703 -2.7387532878600167 139.58468309948452 
2220220220 0.02090373763655619 -0.010723358085434384 -41.41663041775444 59.27677956154262 -43.82452991653533 -117.11990796645793 -2.7230367140813856 139.5216047665287 
2224224224 0.02108798615268076 -0.011627072900835457 -43.4122852314427 76.55300088108595 -56.88027093039742 -55.6384453711999 -2.726944389295387 139.50961079587125 
2228228228 0.041995984945190044 -0.02511934103138766 -45.27859525957545 45.515770831894166 -49.88692764991019 -120.51329820453401 -2.686547654640422 139.09218406715186 
2232232232 0.036855210931684174 0.11810789176041868 -49.41496943319134 74.33913834466165 -50.38036052912041 -103.71708211284907 -2.6751225116411326 138.76980453909823 
2236236236 0.03590999437261666 0.025658502459957495 -49.44266518981364 73.31687230822374 -45.2951900283867 -126.77027671833063 -2.6791753920389234 138.86021194587175 
2240240240 0.019034295042457794 -0.15367362082858665 -40.368700545173965 79.9359168657567 -49.93320278308455 -35.29242284925198 -2.641392900088232 138.4312328773991 
2244244244 0.021845842820564804 0.03307551397214747 -45.308559676202535 63.92222328006085 -45.998999984177225 -107.9844350584929 -2.6429849913467502 138.30980365507403 
2248248248 0.028244277134586625 -0.018765889018482956 -45.48020174139343 88.23662299578424 -53.96243405452162 -109.5566011553766 -2.646335946090039 138.35494378750866 
2252252252 0.028393027410859882 -0.020168774428341998 -42.486229999756084 58.30390887841011 -45.36537688291848 -132.74416890875804 -2.6358223208809854 138.14215411391416 
2256256256 0.02986623657351401 0.07448930113451664 -40.45060487860306 48.96539397910404 -50.928474093216984 -157.8323539026883 -2.607719929892119 137.59485159518073 
2260260260 0.01739796273938687 0.1785698597280019 -46.469647363164924 74.5687886246083 -47.73618585069576 -100.04847197820334 -2.6379896801800538 137.7167063167644 
2264264264 0.02214942522858891 0.0315719364591605 -43.96626938142782 46.825843121237156 -41.951293250875 -115.57444749724908 -2.639061342990483 137.38077710763088 
2268268268 0.03009792905478093 0.07393346669058816 -41.710467015275995 85.30849933156848 -45.86129420000774 -128.05890895890744 -2.597673240008235 137.17574915927693 
2272272272 0.028571598689829128 -0.021183101423370376 -45.58714226965204 44.25400523092932 -47.97207803214654 -118.47796197131429 -2.6065853430253565 136.8355901647514 
2276276276 0.026524880219415466 -0.1643847123155865 -44.96054389040456 21.666851802769713 -47.477523915905394 -74.76503137928326 -2.573546040824816 136.87113364510154 
2280280280 0.021570293435695845 -0.015840154666703302 -47.35160724447259 28.145014633530934 -47.917484052291016 -121.16853233170946 -2.560604239884511 136.46494030335552 
2284284284 0.021607711784842464 -0.016033179943616818 -49.665623825057175 22.658725153839896 -47.95410813577108 -122.75058328487061 -2.5872769276481073 136.54571851034098 
2288288288 0.021650369293199186 -0.01672236523978129 -44.36446816503914 70.71547195019944 -43.96541074259019 -105.49749000515136 -2.5843802539014216 136.12230806039807 
2292292292 0.01290253588179189 -0.10605416160112585 -41.11796069445418 59.300234618872025 -52.95104368019561 -152.12805685787293 -2.5707255149005155 136.04833024808318 
2296296296 0.04301411356391733 -0.08192223912276991 -45.10882252654325 59.350876166043285 -49.95841480959548 -145.2195919512462 -2.577107744723046 136.06347166950056 
2300300300 0.02936847032650472 -0.022022198999891232 -44.70778483625301 81.54416416732252 -52.92635721000646 -101.96322103488276 -2.501334479314906 135.20036404573344 
2304304304 0.03018513520607509 0.026905356910892256 -45.20160431558173 57.382601625306044 -49.88023884448065 -148.21271407138036 -2.5102305746265645 135.29098954457177 
2308308308 0.02773764239672527 -0.11847646547234006 -45.67450419134243 45.485836510824335 -56.91287154952748 -176.20999322438382 -2.5065865100590483 134.9849932040579 
2312312312 0.03679357185006268 -0.027609022898433696 -52.89814636509338 59.68655278492263 -48.728022344254754 170.60120045868405 -2.546690566958313 134.8355754273866 
2316316316 0.006610037472164309 -0.05441054062219427 -41.224864925946264 86.5508798171412 -53.797034654803284 -134.25277826697442 -2.465443851972186 134.51506595354718 
2320320320 0.03138354107511334 0.07472692164376692 -45.29281275492595 52.5595119979712 -50.280718906519 -135.82055206296124 -2.458510862447197 134.20053708762038 
2324324324 0.028904022636989407 -0.07166772733138414 -48.820831747993566 85.47550077181909 -49.810755239806454 -156.33203546870504 -2.477770176017881 133.60852772040218 
2328328328 0.03907105093035174 0.07022733457083885 -45.3928416466411 49.98325921876613 -47.459055109862966 -153.55594952557414 -2.424153147200119 133.4386863492051 
2332332332 0.017624210374171563 0.13756124074809647 -46.10481288955594 63.88722442493937 -49.73518186418221 -122.71609094568512 -2.42666768980948 133.19879813980597 
2336336336 0.031154766222037802 0.025911877312719253 -48.90396758958664 81.90898737859159 -45.54521704860994 -154.0586850565495 -2.370433857113615 132.92576331083512 
2340340340 0.038819481355655994 0.019903636720722567 -41.95843883115229 53.93139568190193 -47.43473521736105 -158.54875272775755 -2.386969061387734 132.5466391035552 
2344344344 0.029435013234871472 -0.07513850733888366 -47.09198215236314 49.35065076930871 -47.41486838286656 -160.50642562102288 -2.375649701163803 132.2830920660613 
2348348348 0.022910039982641905 -0.019194404401698947 -49.01708434859323 55.25110717250486 -49.72278478551972 -129.87161287086897 -2.31931315225163 131.95275988842727 
2352352352 0.03256555710772632 0.07563323104089105 -44.87759989959679 50.895258444169464 -52.696243555511195 92.92571069724707 -2.306575883560457 131.2827094282079 
2356356356 0.024068036418314627 0.03129475950458504 -47.66644154596786 63.69839461159927 -43.99899972508713 -161.73843505265063 -2.284484348930238 131.03698271728675 
2360360360 0.039694583101272586 0.017522537493710636 -44.21418283182386 35.642687367192266 -48.57343785207835 172.02731852265228 -2.2735797995312654 130.58338952245688 
2364364364 0.033294697306205996 0.07352053919164424 -49.09447808278309 49.357907962162905 -45.545807252376406 -167.7528730662119 -2.265140094118144 130.62662619481944 
2368368368 0.017907595734636784 0.0882187122994688 -44.11738053158409 52.74378754610448 -47.641162964104936 -158.78092234679025 -2.2346192604084223 129.97535139819934 
2372372372 0.02123487437372265 -0.12486812443135646 -44.96866267320419 71.50094752779889 -44.16959297216037 -160.47158625646998 -2.2887403351711515 129.77868226679863 
2376376376 0.018076927577154 0.08874571951891497 -49.15998072515606 44.88230789821726 -52.75426677816278 -136.15527467201545 -2.2122114072353547 129.65157193858101 
2380380380 0.015800703053743412 -0.015989712713209828 -43.3070062114935 54.41754211837605 -45.565835458787774 -175.97147312491686 -2.1741127761184895 129.30619335249307 
2384384384 0.030084449156233362 0.23894578638601904 -43.2847100271111 89.6784379507693 -47.75498596411584 -166.79726613760502 -2.2061108949467667 128.9398787724164 
2388388388 0.03738316898017506 0.1769443123871851 -41.28236860204584 32.71212298852394 -46.79114679634486 164.45304421407903 -2.1884674697393742 128.4154567969239 
2392392392 0.010703276527323493 0.09729967232285432 -51.220890025885765 49.395568842620456 -47.78038415101555 -170.9762955477241 -2.16252780229987 128.153375144172 
2396396396 0.02931371107246853 0.18607722668124477 -48.25820905091131 2.852118506545928 -45.8694196156672 -173.03448727217219 -2.134155640288384 127.67736118867717 
2400400400 0.04462538353741116 0.11585663601169702 -50.73892686909404 1.3552872228825241 -48.811334127983024 128.3812599846624 -2.1449782006772486 127.95749794293386 
2404404404 0.04204701091882913 0.006372806272531102 -45.21128521019022 44.04987280243188 -47.34508961145458 137.77039858562517 -2.101983052944272 127.37208177955858 
2408408408 0.03994339515107885 0.23156495881364939 -43.246994609593294 42.068913383478055 -50.42484746610946 -179.46665618860055 -2.0634733189625845 126.97833297366586 
2412412412 0.022226865050404537 0.1955629627158024 -46.218791838664515 32.10461198038523 -53.04936650462612 151.89659004670153 -2.0425519529974165 126.8640874499361 
2416416416 0.04932589416325091 0.22178666781690226 -47.15805559275641 20.14319005634195 -44.46034912405338 176.9677503760287 -2.0360499489181243 126.7461707331765 
2420420420 0.024393382469200156 0.25064941775145716 -44.622077948820824 -8.431458910354587 -50.094568783117666 156.22554920306126 -2.0083412858216563 126.57255561440637 
2424424424 0.049651718296321666 0.21951445941991787 -43.1504313770006 34.44351119261082 -51.08148770323077 127.56052507004586 -1.9639072582798136 126.12183664842007 
2428428428 0.019879332802924084 0.08715522834897602 -42.33854042832063 27.22500535271615 -49.00946527674151 -155.60788794005333 -1.9474800158058154 126.02094488499239 
2432432432 0.040308886544112896 0.17553669364604174 -46.14162078512913 38.67530397735617 -50.63244048276242 168.89838163921246 -1.8943074551599204 126.23537445652772 
2436436436 0.011905654930908715 0.0988073356184413 -57.08613579151703 28.574584216755735 -46.0707006824914 155.60686902496337 -1.8787676034510223 125.93759512288003 
2440440440 0.047440031509310435 0.10567931529089984 -47.73025879937755 57.36063374149483 -44.49596925764553 155.76799681329453 -1.843886851713137 125.89221087966763 
2444444444 0.03447531589047365 0.23936067077759127 -46.06589889339108 32.60953821938297 -45.647054506029356 141.44208086420477 -1.7925261268136596 125.7658568267089 
2448448448 0.01781711530294757 0.2651412931549885 -43.91763556199243 16.426639616807574 -45.67670706046944 139.44623539110282 -1.7627133505987085 125.7296505808568 
2452452452 0.02866623840223543 0.30837662664946597 -48.832445501541876 9.390911680422864 -46.29323294399345 159.64915094418262 -1.7285519146304167 125.68215371545485 
2456456456 -0.008798818523872069 0.24864540658539275 -47.701084992884056 -12.126666903912986 -46.32958749758256 157.66265937856673 -1.6852973650608252 125.41195629181712 
2460460460 0.029130960813902568 0.3064937596983339 -45.36710245469368 -6.503806749170041 -45.723106393457215 134.07505412621794 -1.6273303685197535 125.66760733286995 
2464464464 0.02100433691699344 0.32074905107294743 -43.9513869894433 41.657575808774325 -47.32858469713414 -178.97965503030724 -1.554014244797151 125.59590584492274 
2468468468 0.02969622323136386 0.3074023009823925 -48.76449976256602 1.8017548800633565 -44.76627348836067 152.42820519599064 -1.5328358541064202 125.39594371852819 
2472472472 0.03001505884441085 0.3066925846391906 -50.88683143254236 11.206989919540117 -43.05134704722816 134.81658747071484 -1.4117564063167387 125.52314711906818 
